time	V(vin)	V(vout)
0.000000000000000e+00,0.000000e+00,9.630962e-18
2.118706874545227e-11,2.118707e-03,8.920360e-05
2.449870647375801e-11,2.449871e-03,1.062423e-04
3.112198193036950e-11,3.112198e-03,1.481774e-04
4.436853284359247e-11,4.436853e-03,2.595498e-04
6.747381645467359e-11,6.747382e-03,5.172733e-04
9.283845285648784e-11,9.283845e-03,8.759158e-04
1.163565220926603e-10,1.163565e-02,1.274751e-03
1.393222145697293e-10,1.393222e-02,1.720292e-03
1.695791792167940e-10,1.695792e-02,2.371906e-03
2.070010545515385e-10,2.070010e-02,3.252266e-03
2.610817661920150e-10,2.610818e-02,4.624058e-03
3.481920725391724e-10,3.481921e-02,6.942062e-03
4.384122156692241e-10,4.384122e-02,9.362784e-03
5.447350454138236e-10,5.447350e-02,1.210469e-02
6.559146671553973e-10,6.559147e-02,1.469394e-02
7.926964648931682e-10,7.926965e-02,1.731752e-02
9.878172236179203e-10,9.878172e-02,1.999282e-02
1.233222254356195e-09,1.233222e-01,2.183619e-02
1.521539472720785e-09,1.521540e-01,2.216473e-02
1.931287568756078e-09,1.931287e-01,2.032753e-02
2.376548784887838e-09,2.376549e-01,1.626348e-02
2.925843563414749e-09,2.925844e-01,9.074122e-03
3.520328184722971e-09,3.520328e-01,-1.313216e-03
4.709297427339413e-09,4.709297e-01,-2.906212e-02
6.369530701784857e-09,6.369531e-01,-7.674801e-02
6.679533451109114e-09,6.679534e-01,-8.729864e-02
7.299538949757628e-09,7.299539e-01,-1.117414e-01
8.539549947054657e-09,8.539550e-01,-1.670262e-01
1.000000000000000e-08,1.000000e+00,-2.390062e-01
1.014604500529453e-08,1.000000e+00,-2.489723e-01
1.043813501588360e-08,1.000000e+00,-2.693783e-01
1.075369352639044e-08,1.000000e+00,-2.912510e-01
1.097455165620823e-08,1.000000e+00,-3.057771e-01
1.128367296848510e-08,1.000000e+00,-3.249313e-01
1.156985552541589e-08,1.000000e+00,-3.420402e-01
1.190845406487798e-08,1.000000e+00,-3.618861e-01
1.244779470642769e-08,1.000000e+00,-3.932446e-01
1.316237464785432e-08,1.000000e+00,-4.346130e-01
1.401522692669083e-08,1.000000e+00,-4.837339e-01
1.572093148436385e-08,1.000000e+00,-5.812260e-01
1.758051365550089e-08,1.000000e+00,-6.862686e-01
2.082465283998193e-08,1.000000e+00,-8.663718e-01
2.532640906678289e-08,1.000000e+00,-1.110155e+00
3.199003028505771e-08,1.000000e+00,-1.457595e+00
4.244896294870158e-08,1.000000e+00,-1.973398e+00
5.752011267204102e-08,1.000000e+00,-2.670060e+00
6.752011267204102e-08,1.000000e+00,-3.102977e+00
7.676187321340459e-08,1.000000e+00,-3.478549e+00
7.887758722602024e-08,1.000000e+00,-3.560924e+00
7.952637171676521e-08,1.000000e+00,-3.585843e+00
8.008100212795918e-08,1.000000e+00,-3.606615e+00
8.029090129390394e-08,1.000000e+00,-3.614065e+00
8.037020166811048e-08,1.000000e+00,-3.616640e+00
8.052880241652357e-08,1.000000e+00,-3.621284e+00
8.079000000000000e-08,1.000000e+00,-3.628362e+00
8.081611975834764e-08,9.973880e-01,-3.629140e+00
8.086835927504293e-08,9.921641e-01,-3.630863e+00
8.097283830843350e-08,9.817162e-01,-3.634659e+00
8.118179637521464e-08,9.608204e-01,-3.642370e+00
8.143447460607579e-08,9.355525e-01,-3.651151e+00
8.165100486704024e-08,9.138995e-01,-3.657974e+00
8.187708245377931e-08,8.912917e-01,-3.664488e+00
8.210947232761138e-08,8.680528e-01,-3.670839e+00
8.239792134980142e-08,8.392079e-01,-3.678464e+00
8.285159875516054e-08,7.938401e-01,-3.690061e+00
8.332307975635718e-08,7.466920e-01,-3.701520e+00
8.426604175875046e-08,6.523958e-01,-3.722894e+00
8.532476082913090e-08,5.465239e-01,-3.744572e+00
8.664397440127813e-08,4.146025e-01,-3.768308e+00
8.722044443907037e-08,3.569556e-01,-3.776835e+00
8.788385626165839e-08,2.906144e-01,-3.783545e+00
8.857491199309709e-08,2.215088e-01,-3.786303e+00
8.921102373321473e-08,1.578976e-01,-3.784453e+00
8.990099145207456e-08,8.890086e-02,-3.779083e+00
9.002716781157367e-08,7.628322e-02,-3.777726e+00
9.010974826623283e-08,6.802517e-02,-3.776752e+00
9.019232872089201e-08,5.976713e-02,-3.775726e+00
9.027490917555117e-08,5.150908e-02,-3.774649e+00
9.035748963021033e-08,4.325104e-02,-3.773522e+00
9.044007008486950e-08,3.499299e-02,-3.772344e+00
9.052265053952867e-08,2.673495e-02,-3.771115e+00
9.060523099418783e-08,1.847690e-02,-3.769836e+00
9.079000000000001e-08,0.000000e+00,-3.766897e+00
9.080847690058123e-08,0.000000e+00,-3.766490e+00
9.084543070174366e-08,0.000000e+00,-3.765507e+00
9.091933830406853e-08,0.000000e+00,-3.762972e+00
9.106715350871826e-08,0.000000e+00,-3.756850e+00
9.124324081902268e-08,0.000000e+00,-3.748878e+00
9.137745333774416e-08,0.000000e+00,-3.742740e+00
9.150799510826004e-08,0.000000e+00,-3.737065e+00
9.167416696796728e-08,0.000000e+00,-3.730477e+00
9.188399553658101e-08,0.000000e+00,-3.723068e+00
9.208717764118164e-08,0.000000e+00,-3.716741e+00
9.231781798254140e-08,0.000000e+00,-3.710387e+00
9.268346880703702e-08,0.000000e+00,-3.701216e+00
9.293846971976886e-08,0.000000e+00,-3.695203e+00
9.325134331019579e-08,0.000000e+00,-3.688071e+00
9.360187645746389e-08,0.000000e+00,-3.680150e+00
9.430294275200008e-08,0.000000e+00,-3.664346e+00
9.570507534107247e-08,0.000000e+00,-3.632815e+00
9.700154517752618e-08,0.000000e+00,-3.603865e+00
9.901895284801112e-08,0.000000e+00,-3.559410e+00
1.030537681889810e-07,0.000000e+00,-3.472546e+00
1.111233988709207e-07,0.000000e+00,-3.306473e+00
1.272626602348002e-07,0.000000e+00,-3.002378e+00
1.595411829625592e-07,0.000000e+00,-2.489020e+00
2.240982284180772e-07,0.000000e+00,-1.693168e+00
2.900582519744578e-07,0.000000e+00,-1.107210e+00
3.492765184209406e-07,0.000000e+00,-7.514363e-01
4.123287814692111e-07,0.000000e+00,-4.941136e-01
4.722185769675119e-07,0.000000e+00,-3.261133e-01
5.341983544399150e-07,0.000000e+00,-2.070243e-01
5.927996467398210e-07,0.000000e+00,-1.292322e-01
6.515595638035653e-07,0.000000e+00,-7.511942e-02
7.064726114734369e-07,0.000000e+00,-3.921840e-02
7.519933624753017e-07,0.000000e+00,-1.750758e-02
7.909925621664584e-07,0.000000e+00,-3.510816e-03
8.312828439816451e-07,0.000000e+00,7.672518e-03
8.711192858600611e-07,0.000000e+00,1.632012e-02
9.108464172021204e-07,0.000000e+00,2.308142e-02
9.465021383750848e-07,0.000000e+00,2.786482e-02
9.829985020435587e-07,0.000000e+00,3.176122e-02
1.015166063343178e-06,0.000000e+00,3.452639e-02
1.047693397734586e-06,0.000000e+00,3.679042e-02
1.078293254359393e-06,0.000000e+00,3.853734e-02
1.106173008455838e-06,0.000000e+00,3.985667e-02
1.129929614537791e-06,0.000000e+00,4.080539e-02
1.150234151949557e-06,0.000000e+00,4.150437e-02
1.166958280488595e-06,0.000000e+00,4.201219e-02
1.180478138957974e-06,0.000000e+00,4.238210e-02
1.199041921846935e-06,0.000000e+00,4.283647e-02
1.214164517337975e-06,0.000000e+00,4.316464e-02
1.214744904162568e-06,0.000000e+00,4.317644e-02
1.215503657842466e-06,0.000000e+00,4.319189e-02
1.216689553492296e-06,0.000000e+00,4.321584e-02
1.217875449142126e-06,0.000000e+00,4.323957e-02
1.219061344791956e-06,0.000000e+00,4.326308e-02
1.220247240441786e-06,0.000000e+00,4.328638e-02
1.221433136091616e-06,0.000000e+00,4.330945e-02
1.222619031741445e-06,0.000000e+00,4.333230e-02
1.223804927391275e-06,0.000000e+00,4.335494e-02
1.238630520759291e-06,0.000000e+00,4.362077e-02
1.252473154843001e-06,0.000000e+00,4.384267e-02
1.277053988990597e-06,0.000000e+00,4.418212e-02
1.314441047676307e-06,0.000000e+00,4.458887e-02
1.373783177057324e-06,0.000000e+00,4.501944e-02
1.475221687388055e-06,0.000000e+00,4.538545e-02
1.606778016194222e-06,0.000000e+00,4.544464e-02
1.869890673806555e-06,0.000000e+00,4.502429e-02
2.108038294751973e-06,0.000000e+00,4.444233e-02
2.584333536642809e-06,0.000000e+00,4.315830e-02
4.182752408744427e-06,0.000000e+00,3.910637e-02
5.672085815842518e-06,0.000000e+00,3.567461e-02
7.625210815842518e-06,0.000000e+00,3.160090e-02
9.578335815842519e-06,0.000000e+00,2.796642e-02
1.153146081584252e-05,0.000000e+00,2.474994e-02
1.348458581584252e-05,0.000000e+00,2.190341e-02
1.543771081584252e-05,0.000000e+00,1.938425e-02
1.739083581584252e-05,0.000000e+00,1.715483e-02
1.934396081584252e-05,0.000000e+00,1.518182e-02
2.129708581584253e-05,0.000000e+00,1.343573e-02
2.325021081584253e-05,0.000000e+00,1.189046e-02
2.520333581584253e-05,0.000000e+00,1.052292e-02
2.715646081584253e-05,0.000000e+00,9.312654e-03
2.910958581584253e-05,0.000000e+00,8.241588e-03
3.106271081584254e-05,0.000000e+00,7.293707e-03
3.301583581584254e-05,0.000000e+00,6.454844e-03
3.496896081584254e-05,0.000000e+00,5.712459e-03
3.692208581584254e-05,0.000000e+00,5.055458e-03
3.887521081584254e-05,0.000000e+00,4.474021e-03
4.082833581584254e-05,0.000000e+00,3.959455e-03
4.278146081584255e-05,0.000000e+00,3.504070e-03
4.473458581584255e-05,0.000000e+00,3.101060e-03
4.668771081584255e-05,0.000000e+00,2.744401e-03
4.864083581584255e-05,0.000000e+00,2.428762e-03
5.059396081584255e-05,0.000000e+00,2.149425e-03
5.254708581584255e-05,0.000000e+00,1.902216e-03
5.450021081584256e-05,0.000000e+00,1.683438e-03
5.645333581584256e-05,0.000000e+00,1.489823e-03
5.840646081584256e-05,0.000000e+00,1.318475e-03
6.035958581584256e-05,0.000000e+00,1.166835e-03
6.231271081584256e-05,0.000000e+00,1.032635e-03
6.426583581584256e-05,0.000000e+00,9.138696e-04
6.621896081584256e-05,0.000000e+00,8.087637e-04
6.817208581584256e-05,0.000000e+00,7.157462e-04
7.012521081584256e-05,0.000000e+00,6.334269e-04
7.207833581584256e-05,0.000000e+00,5.605752e-04
7.403146081584257e-05,0.000000e+00,4.961024e-04
7.598458581584257e-05,0.000000e+00,4.390447e-04
7.793771081584257e-05,0.000000e+00,3.885493e-04
7.989083581584257e-05,0.000000e+00,3.438615e-04
8.184396081584257e-05,0.000000e+00,3.043133e-04
8.379708581584258e-05,0.000000e+00,2.693136e-04
8.575021081584258e-05,0.000000e+00,2.383393e-04
8.770333581584258e-05,0.000000e+00,2.109275e-04
9.160958581584258e-05,0.000000e+00,1.651992e-04
9.551583581584259e-05,0.000000e+00,1.293847e-04
9.942208581584259e-05,0.000000e+00,1.013346e-04
1.033283358158426e-04,0.000000e+00,7.936562e-05
1.091877108158426e-04,0.000000e+00,5.501038e-05
1.150470858158426e-04,0.000000e+00,3.812913e-05
1.195113715301283e-04,0.000000e+00,2.978072e-05
1.239756572444140e-04,0.000000e+00,2.265650e-05
1.284399429586998e-04,0.000000e+00,1.675648e-05
1.329042286729855e-04,0.000000e+00,1.208064e-05
1.373685143872712e-04,0.000000e+00,8.628998e-06
1.418328001015569e-04,0.000000e+00,6.401543e-06
1.462970858158426e-04,0.000000e+00,5.398280e-06
1.594109251015569e-04,0.000000e+00,3.366249e-06
1.725247643872712e-04,0.000000e+00,1.755325e-06
1.856386036729855e-04,0.000000e+00,5.655085e-07
1.987524429586998e-04,0.000000e+00,-2.032014e-07
2.118662822444141e-04,0.000000e+00,-5.508043e-07
2.249801215301284e-04,0.000000e+00,-4.773003e-07
2.380939608158427e-04,0.000000e+00,1.731066e-08
1.681453335815844e-03,0.000000e+00,0.000000e+00
1.999990272757041e-03,0.000000e+00,-2.150603e-10
2.000000000000000e-03,0.000000e+00,2.661673e-10