Freq.	V(vout_1)	V(vout_2)
1.00000000000000e+04,-4.34245794792669e-04,3.77664929119203e-04
1.02329299228075e+04,-4.54710097263065e-04,3.95460598969448e-04
1.04712854805090e+04,-4.76138749243961e-04,4.14094650907697e-04
1.07151930523761e+04,-4.98577189155427e-04,4.33606567522992e-04
1.09647819614318e+04,-5.22072995906979e-04,4.54037689338810e-04
1.12201845430196e+04,-5.46675989673658e-04,4.75431302131958e-04
1.14815362149688e+04,-5.72438337430173e-04,4.97832728291182e-04
1.17489755493953e+04,-5.99414663434871e-04,5.21289422463664e-04
1.20226443461741e+04,-6.27662164923871e-04,5.45851071710506e-04
1.23026877081238e+04,-6.57240733222737e-04,5.71569700315073e-04
1.25892541179417e+04,-6.88213080587318e-04,5.98499779494108e-04
1.28824955169313e+04,-7.20644872968799e-04,6.26698342259476e-04
1.31825673855641e+04,-7.54604869056274e-04,6.56225103628195e-04
1.34896288259165e+04,-7.90165065833612e-04,6.87142586449669e-04
1.38038426460288e+04,-8.27400850981040e-04,7.19516253124701e-04
1.41253754462275e+04,-8.66391162445300e-04,7.53414643450272e-04
1.44543977074593e+04,-9.07218655491779e-04,7.88909518906854e-04
1.47910838816821e+04,-9.49969877641893e-04,8.26076013674046e-04
1.51356124843621e+04,-9.94735451766109e-04,8.64992792679446e-04
1.54881661891248e+04,-1.04161026784819e-03,9.05742217008647e-04
1.58489319246111e+04,-1.09069368369731e-03,9.48410517015640e-04
1.62181009735893e+04,-1.14208973510671e-03,9.93087973511279e-04
1.65958690743756e+04,-1.19590735589152e-03,1.03986910732431e-03
1.69824365246174e+04,-1.25226060821800e-03,1.08885287771631e-03
1.73780082874937e+04,-1.31126892378019e-03,1.14014288999465e-03
1.77827941003892e+04,-1.37305735626683e-03,1.19384761276380e-03
1.81970085860998e+04,-1.43775684567322e-03,1.25008060522798e-03
1.86208713666287e+04,-1.50550449501099e-03,1.30896075505216e-03
1.90546071796325e+04,-1.57644386000602e-03,1.37061252722270e-03
1.94984459975804e+04,-1.65072525233761e-03,1.43516622442363e-03
1.99526231496888e+04,-1.72850605713174e-03,1.50275825941498e-03
2.04173794466953e+04,-1.80995106529764e-03,1.57353144003252e-03
2.08929613085404e+04,-1.89523282143250e-03,1.64763526730598e-03
2.13796208950223e+04,-1.98453198803444e-03,1.72522624728673e-03
2.18776162394955e+04,-2.07803772673784e-03,1.80646821728328e-03
2.23872113856834e+04,-2.17594809741037e-03,1.89153268702878e-03
2.29086765276777e+04,-2.27847047589046e-03,1.98059919556029e-03
2.34422881531992e+04,-2.38582199128506e-03,2.07385568442091e-03
2.39883291901949e+04,-2.49822998368866e-03,2.17149888797445e-03
2.45470891568503e+04,-2.61593248329350e-03,2.27373474155366e-03
2.51188643150958e+04,-2.73917871188121e-03,2.38077880824292e-03
2.57039578276886e+04,-2.86822960770264e-03,2.49285672510293e-03
2.63026799189538e+04,-3.00335837489402e-03,2.61020466972621e-03
2.69153480392691e+04,-3.14485105846027e-03,2.73306984793788e-03
2.75422870333816e+04,-3.29300714611191e-03,2.86171100364514e-03
2.81838293126445e+04,-3.44814019811429e-03,2.99639895175439e-03
2.88403150312660e+04,-3.61057850647262e-03,3.13741713512118e-03
2.95120922666638e+04,-3.78066578480124e-03,3.28506220662522e-03
3.01995172040201e+04,-3.95876189027988e-03,3.43964463740074e-03
3.09029543251359e+04,-4.14524357915609e-03,3.60148935233276e-03
3.16227766016837e+04,-4.34050529735453e-03,3.77093639400622e-03
3.23593656929628e+04,-4.54496000779313e-03,3.94834161624371e-03
3.31131121482591e+04,-4.75904005605182e-03,4.13407740849933e-03
3.38844156139202e+04,-4.98319807618947e-03,4.32853345241094e-03
3.46736850452531e+04,-5.21790793850506e-03,4.53211751175553e-03
3.54813389233575e+04,-5.46366574115723e-03,4.74525625723303e-03
3.63078054770101e+04,-5.72099084762913e-03,4.96839612747617e-03
3.71535229097172e+04,-5.99042697212178e-03,5.20200422768469e-03
3.80189396320560e+04,-6.27254331504465e-03,5.44656926743874e-03
3.89045144994280e+04,-6.56793575083247e-03,5.70260253919564e-03
3.98107170553496e+04,-6.87722807049753e-03,5.97063893900853e-03
4.07380277804112e+04,-7.20107328130632e-03,6.25123803118857e-03
4.16869383470335e+04,-7.54015496621172e-03,6.54498515842650e-03
4.26579518801592e+04,-7.89518870564806e-03,6.85249259917531e-03
4.36515832240165e+04,-8.26692356449944e-03,7.17440077398483e-03
4.46683592150962e+04,-8.65614364714395e-03,7.51137950253003e-03
4.57088189614874e+04,-9.06366972355316e-03,7.86412931312614e-03
4.67735141287197e+04,-9.49036092962803e-03,8.23338280662490e-03
4.78630092322637e+04,-9.93711654501250e-03,8.61990607637704e-03
4.89778819368445e+04,-1.04048778517819e-02,9.02450018625545e-03
5.01187233627271e+04,-1.08946300775564e-02,9.44800270852768e-03
5.12861383991363e+04,-1.14074044267096e-02,9.89128932342243e-03
5.24807460249771e+04,-1.19442802034769e-02,1.03552754823059e-02
5.37031796370251e+04,-1.25063870309608e-02,1.08409181362748e-02
5.49540873857623e+04,-1.30949071701207e-02,1.13492175319275e-02
5.62341325190347e+04,-1.37110779430588e-02,1.18812190761778e-02
5.75439937337155e+04,-1.43561942650098e-02,1.24380152717198e-02
5.88843655355587e+04,-1.50316112896555e-02,1.30207477248739e-02
6.02559586074356e+04,-1.57387471725422e-02,1.36306092272889e-02
6.16595001861480e+04,-1.64790859575025e-02,1.42688459129788e-02
6.30957344480191e+04,-1.72541805912579e-02,1.49367594919927e-02
6.45654229034654e+04,-1.80656560714350e-02,1.56357095618106e-02
6.60693448007594e+04,-1.89152127335169e-02,1.63671159974719e-02
6.76082975391980e+04,-1.98046296823433e-02,1.71324614210772e-02
6.91830970918934e+04,-2.07357683740307e-02,1.79332937511853e-02
7.07945784384136e+04,-2.17105763543122e-02,1.87712288321544e-02
7.24435960074988e+04,-2.27310911595108e-02,1.96479531432710e-02
7.41310241300915e+04,-2.37994443865372e-02,2.05652265870008e-02
7.58577575029181e+04,-2.49178659384705e-02,2.15248853552602e-02
7.76247116628689e+04,-2.60886884525110e-02,2.25288448720084e-02
7.94328234724279e+04,-2.73143519171819e-02,2.35791028099447e-02
8.12830516164096e+04,-2.85974084859475e-02,2.46777421783182e-02
8.31763771102668e+04,-2.99405274944540e-02,2.58269344780097e-02
8.51138038202373e+04,-3.13465006888954e-02,2.70289429193098e-02
8.70963589956077e+04,-3.28182476730250e-02,2.82861256965558e-02
8.91250938133742e+04,-3.43588215815758e-02,2.96009393128792e-02
9.12010839355906e+04,-3.59714149879547e-02,3.09759419467935e-02
9.33254300796988e+04,-3.76593660541513e-02,3.24137968510559e-02
9.54992586021432e+04,-3.94261649309344e-02,3.39172757724578e-02
9.77237220955807e+04,-4.12754604165179e-02,3.54892623793873e-02
9.99999999999996e+04,-4.32110668818559e-02,3.71327556819391e-02
1.02329299228075e+05,-4.52369714708152e-02,3.88508734270162e-02
1.04712854805090e+05,-4.73573415834711e-02,4.06468554481188e-02
1.07151930523760e+05,-4.95765326507174e-02,4.25240669467378e-02
1.09647819614318e+05,-5.18990962083060e-02,4.44860016789017e-02
1.12201845430196e+05,-5.43297882783746e-02,4.65362850166766e-02
1.14815362149688e+05,-5.68735780662984e-02,4.86786768503930e-02
1.17489755493952e+05,-5.95356569805222e-02,5.09170742927012e-02
1.20226443461741e+05,-6.23214479827998e-02,5.32555141404318e-02
1.23026877081238e+05,-6.52366152758443e-02,5.56981750443385e-02
1.25892541179416e+05,-6.82870743351047e-02,5.82493793306517e-02
1.28824955169313e+05,-7.14790022908294e-02,6.09135944107725e-02
1.31825673855640e+05,-7.48188486660469e-02,6.36954337077606e-02
1.34896288259165e+05,-7.83133464754320e-02,6.65996570190953e-02
1.38038426460288e+05,-8.19695236892937e-02,6.96311702251912e-02
1.41253754462275e+05,-8.57947150660163e-02,7.27950242420500e-02
1.44543977074592e+05,-8.97965743553326e-02,7.60964131038844e-02
1.47910838816820e+05,-9.39830868736843e-02,7.95406710475899e-02
1.51356124843620e+05,-9.83625824516584e-02,8.31332684555854e-02
1.54881661891247e+05,-1.02943748752075e-01,8.68798064959672e-02
1.58489319246111e+05,-1.07735644955785e-01,9.07860102798284e-02
1.62181009735892e+05,-1.12747715810373e-01,9.48577203338882e-02
1.65958690743755e+05,-1.17989806035132e-01,9.91008821626577e-02
1.69824365246174e+05,-1.23472175073507e-01,1.03521533647481e-01
1.73780082874937e+05,-1.29205512181764e-01,1.08125790000070e-01
1.77827941003891e+05,-1.35200951840189e-01,1.12919825954743e-01
1.81970085860997e+05,-1.41470089470199e-01,1.17909854846610e-01
1.86208713666286e+05,-1.48024997437656e-01,1.23102104181678e-01
1.90546071796324e+05,-1.54878241319402e-01,1.28502787258782e-01
1.94984459975804e+05,-1.62042896406290e-01,1.34118070352297e-01
1.99526231496887e+05,-1.69532564412130e-01,1.39954034907504e-01
2.04173794466952e+05,-1.77361390353669e-01,1.46016634137419e-01
2.08929613085403e+05,-1.85544079562226e-01,1.52311643339510e-01
2.13796208950222e+05,-1.94095914782635e-01,1.58844603172841e-01
2.18776162394954e+05,-2.03032773310036e-01,1.65620755049658e-01
2.23872113856833e+05,-2.12371144109361e-01,1.72644967699607e-01
2.29086765276776e+05,-2.22128144856615e-01,1.79921653858767e-01
2.34422881531991e+05,-2.32321538834666e-01,1.87454675918621e-01
2.39883291901948e+05,-2.42969751609807e-01,1.95247239240803e-01
2.45470891568502e+05,-2.54091887408361e-01,2.03301771701295e-01
2.51188643150957e+05,-2.65707745105436e-01,2.11619787871662e-01
2.57039578276885e+05,-2.77837833730435e-01,2.20201736073762e-01
2.63026799189537e+05,-2.90503387386117e-01,2.29046826357816e-01
2.69153480392690e+05,-3.03726379470025e-01,2.38152837250609e-01
2.75422870333815e+05,-3.17529536078906e-01,2.47515898900860e-01
2.81838293126444e+05,-3.31936348468386e-01,2.57130250012267e-01
2.88403150312659e+05,-3.46971084431717e-01,2.66987965701474e-01
2.95120922666637e+05,-3.62658798453052e-01,2.77078653149960e-01
3.01995172040200e+05,-3.79025340482203e-01,2.87389111636408e-01
3.09029543251358e+05,-3.96097363169725e-01,2.97902953243754e-01
3.16227766016836e+05,-4.13902327393135e-01,3.08600180236046e-01
3.23593656929627e+05,-4.32468505897507e-01,3.19456714801685e-01
3.31131121482589e+05,-4.51824984866631e-01,3.30443876569854e-01
3.38844156139201e+05,-4.72001663234428e-01,3.41527803037746e-01
3.46736850452530e+05,-4.93029249540720e-01,3.52668807812996e-01
3.54813389233574e+05,-5.14939256130787e-01,3.63820671398466e-01
3.63078054770099e+05,-5.37763990494633e-01,3.74929859150954e-01
3.71535229097171e+05,-5.61536543539658e-01,3.85934661063538e-01
3.80189396320559e+05,-5.86290774589894e-01,3.96764248193849e-01
3.89045144994279e+05,-6.12061292905961e-01,4.07337640936849e-01
3.98107170553495e+05,-6.38883435523092e-01,4.17562584981851e-01
4.07380277804111e+05,-6.66793241209701e-01,4.27334331771459e-01
4.16869383470333e+05,-6.95827420356705e-01,4.36534321681754e-01
4.26579518801590e+05,-7.26023320617949e-01,4.45028770067740e-01
4.36515832240164e+05,-7.57418888135168e-01,4.52667158880352e-01
4.46683592150961e+05,-7.90052624196850e-01,4.59280639887784e-01
4.57088189614873e+05,-8.23963537199500e-01,4.64680359761072e-01
4.67735141287196e+05,-8.59191089802193e-01,4.68655722552237e-01
4.78630092322636e+05,-8.95775141191035e-01,4.70972611538586e-01
4.89778819368444e+05,-9.33755884399276e-01,4.71371600146009e-01
5.01187233627270e+05,-9.73173778661494e-01,4.69566190777131e-01
5.12861383991362e+05,-1.01406947681611e+00,4.65241130872957e-01
5.24807460249770e+05,-1.05648374780988e+00,4.58050867350300e-01
5.37031796370250e+05,-1.10045739440026e+00,4.47618213464809e-01
5.49540873857621e+05,-1.14603116619680e+00,4.33533315752338e-01
5.62341325190346e+05,-1.19324566823045e+00,4.15353022367529e-01
5.75439937337154e+05,-1.24214126528953e+00,3.92600766955421e-01
5.88843655355586e+05,-1.29275798231279e+00,3.64767092929485e-01
6.02559586074354e+05,-1.34513540118221e+00,3.31310950125177e-01
6.16595001861479e+05,-1.39931255431186e+00,2.91661897382259e-01
6.30957344480189e+05,-1.45532781548126e+00,2.45223338583985e-01
6.45654229034652e+05,-1.51321878841411e+00,1.91376903877422e-01
6.60693448007592e+05,-1.57302219365238e+00,1.29488060216365e-01
6.76082975391978e+05,-1.63477375432372e+00,5.89129945067208e-02
6.91830970918932e+05,-1.69850808144276e+00,-2.09932421023012e-02
7.07945784384134e+05,-1.76425855942646e+00,-1.10867408109257e-01
7.24435960074986e+05,-1.83205723253682e+00,-2.11327721596083e-01
7.41310241300913e+05,-1.90193469299124e+00,-3.22962728812224e-01
7.58577575029179e+05,-1.97391997150132e+00,-4.46319718507087e-01
7.76247116628687e+05,-2.04804043101240e+00,-5.81893085251799e-01
7.94328234724276e+05,-2.12432166442047e+00,-7.30113103744724e-01
8.12830516164094e+05,-2.20278739703717e+00,-8.91335608620643e-01
8.31763771102666e+05,-2.28345939455929e+00,-1.06583307329501e+00
8.51138038202371e+05,-2.36635737727483e+00,-1.25378754253483e+00
8.70963589956075e+05,-2.45149894120377e+00,-1.45528579649497e+00
8.91250938133740e+05,-2.53889948682854e+00,-1.67031701328436e+00
9.12010839355904e+05,-2.62857215601676e+00,-1.89877306158722e+00
9.33254300796985e+05,-2.72052777767778e+00,-2.14045140678800e+00
9.54992586021430e+05,-2.81477482262594e+00,-2.39506046755910e+00
9.77237220955804e+05,-2.91131936804739e+00,-2.66222712886693e+00
9.99999999999993e+05,-3.01016507188587e+00,-2.94150601351521e+00
1.02329299228075e+06,-3.11131315737602e+00,-3.23239004560508e+00
1.04712854805089e+06,-3.21476240786306e+00,-3.53432180899825e+00
1.07151930523760e+06,-3.32050917195525e+00,-3.84670521078640e+00
1.09647819614318e+06,-3.42854737896297e+00,-4.16891699879790e+00
1.12201845430196e+06,-3.53886856448587e+00,-4.50031774555814e+00
1.14815362149688e+06,-3.65146190591963e+00,-4.84026198986787e+00
1.17489755493952e+06,-3.76631426756731e+00,-5.18810731236324e+00
1.20226443461740e+06,-3.88341025495860e+00,-5.54322220527854e+00
1.23026877081237e+06,-4.00273227790417e+00,-5.90499267312199e+00
1.25892541179416e+06,-4.12426062174394e+00,-6.27282756608914e+00
1.28824955169313e+06,-4.24797352618662e+00,-6.64616269971831e+00
1.31825673855640e+06,-4.37384727108596e+00,-7.02446385212895e+00
1.34896288259164e+06,-4.50185626845533e+00,-7.40722875500981e+00
1.38038426460288e+06,-4.63197315998884e+00,-7.79398820798372e+00
1.41253754462274e+06,-4.76416891933280e+00,-8.18430645013110e+00
1.44543977074592e+06,-4.89841295833634e+00,-8.57778091947746e+00
1.47910838816820e+06,-5.03467323650510e+00,-8.97404152319822e+00
1.51356124843620e+06,-5.17291637288531e+00,-9.37274952997413e+00
1.54881661891247e+06,-5.31310775961764e+00,-9.77359618283156e+00
1.58489319246110e+06,-5.45521167642027e+00,-1.01763011170815e+01
1.62181009735892e+06,-5.59919140528796e+00,-1.05806106544769e+01
1.65958690743755e+06,-5.74500934472680e+00,-1.09862960320144e+01
1.69824365246173e+06,-5.89262712288389e+00,-1.13931516122701e+01
1.73780082874936e+06,-6.04200570897398e+00,-1.18009931119610e+01
1.77827941003891e+06,-6.19310552245294e+00,-1.22096558766158e+01
1.81970085860997e+06,-6.34588653943690e+00,-1.26189932217994e+01
1.86208713666285e+06,-6.50030839591865e+00,-1.30288748551542e+01
1.90546071796323e+06,-6.65633048738483e+00,-1.34391853885025e+01
1.94984459975803e+06,-6.81391206449097e+00,-1.38498229452321e+01
1.99526231496887e+06,-6.97301232450396e+00,-1.42606978650452e+01
2.04173794466951e+06,-7.13359049827298e+00,-1.46717315057384e+01
2.08929613085402e+06,-7.29560593253996e+00,-1.50828551398809e+01
2.13796208950222e+06,-7.45901816744813e+00,-1.54940089429608e+01
2.18776162394954e+06,-7.62378700915289e+00,-1.59051410686699e+01
2.23872113856832e+06,-7.78987259748094e+00,-1.63162068064221e+01
2.29086765276776e+06,-7.95723546862360e+00,-1.67271678158750e+01
2.34422881531990e+06,-8.12583661288561e+00,-1.71379914330870e+01
2.39883291901947e+06,-8.29563752754367e+00,-1.75486500429554e+01
2.45470891568501e+06,-8.46660026489804e+00,-1.79591205126949e+01
2.51188643150956e+06,-8.63868747562611e+00,-1.83693836813091e+01
2.57039578276884e+06,-8.81186244756963e+00,-1.87794239002494e+01
2.63026799189536e+06,-8.98608914010594e+00,-1.91892286207302e+01
2.69153480392689e+06,-9.16133221426991e+00,-1.95987880234639e+01
2.75422870333814e+06,-9.33755705880606e+00,-2.00080946868759e+01
2.81838293126443e+06,-9.51472981234075e+00,-2.04171432901598e+01
2.88403150312658e+06,-9.69281738187189e+00,-2.08259303478225e+01
2.95120922666636e+06,-9.87178745777884e+00,-2.12344539726496e+01
3.01995172040199e+06,-1.00516085255582e+01,-2.16427136642840e+01
3.09029543251357e+06,-1.02322498744927e+01,-2.20507101208640e+01
3.16227766016835e+06,-1.04136816034590e+01,-2.24584450713962e+01
3.23593656929626e+06,-1.05958746240786e+01,-2.28659211267573e+01
3.31131121482588e+06,-1.07788006614131e+01,-2.32731416474175e+01
3.38844156139200e+06,-1.09624322523990e+01,-2.36801106261596e+01
3.46736850452529e+06,-1.11467427422118e+01,-2.40868325842395e+01
3.54813389233573e+06,-1.13317062787453e+01,-2.44933124795820e+01
3.63078054770098e+06,-1.15172978053804e+01,-2.48995556257487e+01
3.71535229097169e+06,-1.17034930522149e+01,-2.53055676205404e+01
3.80189396320558e+06,-1.18902685259128e+01,-2.57113542832093e+01
3.89045144994277e+06,-1.20776014983296e+01,-2.61169215993617e+01
3.98107170553494e+06,-1.22654699940548e+01,-2.65222756727260e+01
4.07380277804109e+06,-1.24538527770100e+01,-2.69274226830428e+01
4.16869383470332e+06,-1.26427293362296e+01,-2.73323688494133e+01
4.26579518801589e+06,-1.28320798709431e+01,-2.77371203985085e+01
4.36515832240162e+06,-1.30218852750717e+01,-2.81416835371043e+01
4.46683592150959e+06,-1.32121271212400e+01,-2.85460644284632e+01
4.57088189614871e+06,-1.34027876444009e+01,-2.89502691721333e+01
4.67735141287194e+06,-1.35938497251593e+01,-2.93543037867802e+01
4.78630092322634e+06,-1.37852968728771e+01,-2.97581741957067e+01
4.89778819368442e+06,-1.39771132086320e+01,-3.01618862147535e+01
5.01187233627268e+06,-1.41692834480982e+01,-3.05654455423047e+01
5.12861383991360e+06,-1.43617928844099e+01,-3.09688577511509e+01
5.24807460249768e+06,-1.45546273710615e+01,-3.13721282819910e+01
5.37031796370248e+06,-1.47477733048964e+01,-3.17752624383756e+01
5.49540873857620e+06,-1.49412176092262e+01,-3.21782653829148e+01
5.62341325190344e+06,-1.51349477171212e+01,-3.25811421345957e+01
5.75439937337152e+06,-1.53289515549069e+01,-3.29838975670674e+01
5.88843655355584e+06,-1.55232175258971e+01,-3.33865364077703e+01
6.02559586074352e+06,-1.57177344943890e+01,-3.37890632377976e+01
6.16595001861477e+06,-1.59124917699464e+01,-3.41914824923902e+01
6.30957344480187e+06,-1.61074790919866e+01,-3.45937984619763e+01
6.45654229034650e+06,-1.63026866146915e+01,-3.49960152936784e+01
6.60693448007590e+06,-1.64981048922541e+01,-3.53981369932165e+01
6.76082975391976e+06,-1.66937248644724e+01,-3.58001674271478e+01
6.91830970918930e+06,-1.68895378426999e+01,-3.62021103253852e+01
7.07945784384131e+06,-1.70855354961588e+01,-3.66039692839497e+01
7.24435960074983e+06,-1.72817098386208e+01,-3.70057477679104e+01
7.41310241300911e+06,-1.74780532154587e+01,-3.74074491144767e+01
7.58577575029177e+06,-1.76745582910703e+01,-3.78090765362081e+01
7.76247116628684e+06,-1.78712180366737e+01,-3.82106331243131e+01
7.94328234724274e+06,-1.80680257184740e+01,-3.86121218520108e+01
8.12830516164092e+06,-1.82649748861985e+01,-3.90135455779331e+01
8.31763771102663e+06,-1.84620593619969e+01,-3.94149070495478e+01
8.51138038202368e+06,-1.86592732297017e+01,-3.98162089065859e+01
8.70963589956072e+06,-1.88566108244462e+01,-4.02174536844580e+01
8.91250938133737e+06,-1.90540667226309e+01,-4.06186438176462e+01
9.12010839355901e+06,-1.92516357322356e+01,-4.10197816430631e+01
9.33254300796982e+06,-1.94493128834675e+01,-4.14208694033654e+01
9.54992586021427e+06,-1.96470934197414e+01,-4.18219092502171e+01
9.77237220955801e+06,-1.98449727889811e+01,-4.22229032474935e+01
9.99999999999990e+06,-2.00429466352379e+01,-4.26238533744219e+01
1.02329299228074e+07,-2.02410107906150e+01,-4.30247615286539e+01
1.04712854805089e+07,-2.04391612674923e+01,-4.34256295292660e+01
1.07151930523760e+07,-2.06373942510427e+01,-4.38264591196857e+01
1.09647819614317e+07,-2.08357060920307e+01,-4.42272519705404e+01
